
T4170 000:073 SEGGER J-Link V6.10i Log File (0000ms, 0042ms total)
T4170 000:073 DLL Compiled: Oct 25 2016 19:31:51 (0000ms, 0042ms total)
T4170 000:073 Logging started @ 2018-08-04 19:22 (0000ms, 0042ms total)
T4170 000:074 JLINK_SetWarnOutHandler(...) (0000ms, 0043ms total)
T4170 000:074 JLINK_OpenEx(...)
Firmware: J-Link V9 compiled Feb  2 2018 18:12:38
Hardware: V9.20
Feature(s): RDI, GDB, FlashDL, FlashBP, JFlash, RDDIWEBSRV Webserver running on local port 19080 (0027ms, 0070ms total)
T4170 000:074   returns O.K. (0027ms, 0070ms total)
T4170 000:101 JLINK_SetErrorOutHandler(...) (0000ms, 0070ms total)
T4170 000:101 JLINK_ExecCommand("ProjectFile = "F:\GitRepository20180715\STM32F103ZG_PRO\Project\RVMDK£¨uv5£©\JLinkSettings.ini"", ...).   returns 0x00 (0110ms, 0180ms total)
T4170 000:214 JLINK_ExecCommand("Device = STM32F103ZG", ...). Device "STM32F103ZG" selected.  returns 0x00 (0003ms, 0183ms total)
T4170 000:217 JLINK_ExecCommand("DisableConnectionTimeout", ...).   returns 0x01 (0000ms, 0183ms total)
T4170 000:217 JLINK_GetHardwareVersion()  returns 0x16760 (0000ms, 0183ms total)
T4170 000:217 JLINK_GetDLLVersion()  returns 61009 (0000ms, 0183ms total)
T4170 000:217 JLINK_GetFirmwareString(...) (0000ms, 0183ms total)
T4170 000:222 JLINK_GetDLLVersion()  returns 61009 (0000ms, 0183ms total)
T4170 000:222 JLINK_GetCompileDateTime() (0000ms, 0183ms total)
T4170 000:224 JLINK_GetFirmwareString(...) (0000ms, 0183ms total)
T4170 000:226 JLINK_GetHardwareVersion()  returns 0x16760 (0000ms, 0183ms total)
T4170 000:231 JLINK_TIF_Select(JLINKARM_TIF_SWD)  returns 0x00 (0000ms, 0183ms total)
T4170 000:231 JLINK_SetSpeed(5000) (0001ms, 0184ms total)
T4170 000:232 JLINK_GetId() >0x108 TIF>Found SWD-DP with ID 0x1BA01477 >0x0D TIF> >0x28 TIF> >0x0D TIF> >0x28 TIF> >0x0D TIF> >0x28 TIF> >0x0D TIF> >0x28 TIF> >0x0D TIF> >0x21 TIF> >0x0D TIF> >0x28 TIF> >0x0D TIF> >0x28 TIF> >0x0D TIF> >0x28 TIF> >0x0D TIF> >0x21 TIF> >0x0D TIF> >0x21 TIF> >0x0D TIF> >0x28 TIF> >0x0D TIF> >0x21 TIF> >0x0D TIF> >0x21 TIF> >0x0D TIF> >0x28 TIF> >0x0D TIF> >0x21 TIF> >0x0D TIF> >0x21 TIF> >0x0D TIF> >0x28 TIF> >0x0D TIF> >0x21 TIF> >0x0D TIF> >0x21 TIF> >0x0D TIF>
 >0x28 TIF> >0x0D TIF> >0x21 TIF> >0x0D TIF> >0x21 TIF> >0x0D TIF> >0x28 TIF> >0x0D TIF> >0x21 TIF> >0x0D TIF> >0x21 TIF> >0x0D TIF> >0x28 TIF> >0x0D TIF> >0x21 TIF> >0x0D TIF> >0x21 TIF> >0x108 TIF>Found SWD-DP with ID 0x1BA01477 >0x0D TIF> >0x28 TIF> >0x0D TIF> >0x28 TIF> >0x0D TIF> >0x28 TIF> >0x0D TIF> >0x28 TIF> >0x0D TIF> >0x21 TIF> >0x0D TIF> >0x28 TIF> >0x0D TIF> >0x28 TIF> >0x0D TIF> >0x21 TIF> >0x0D TIF> >0x21 TIF> >0x0D TIF> >0x21 TIF>AP-IDR: 0x14770011, Type: AHB-AP >0x0D TIF> >0x28 TIF>
 >0x0D TIF> >0x28 TIF> >0x0D TIF> >0x28 TIF> >0x0D TIF> >0x21 TIF> >0x0D TIF> >0x21 TIF> >0x0D TIF> >0x28 TIF> >0x0D TIF> >0x21 TIF> >0x0D TIF> >0x21 TIF>Found Cortex-M3 r1p1, Little endian. -- CPU_ReadMem(4 bytes @ 0xE000EDF0) -- CPU_ReadMem(4 bytes @ 0xE0002000)FPUnit: 6 code (BP) slots and 2 literal slots -- CPU_ReadMem(4 bytes @ 0xE000EDFC) -- CPU_WriteMem(4 bytes @ 0xE000EDFC) -- CPU_ReadMem(4 bytes @ 0xE0001000) -- CPU_WriteMem(4 bytes @ 0xE0001000) -- CPU_ReadMem(4 bytes @ 0xE000ED88)
 -- CPU_WriteMem(4 bytes @ 0xE000ED88) -- CPU_ReadMem(4 bytes @ 0xE000ED88) -- CPU_WriteMem(4 bytes @ 0xE000ED88)CoreSight components:ROMTbl 0 @ E00FF000 -- CPU_ReadMem(16 bytes @ 0xE00FF000) -- CPU_ReadMem(16 bytes @ 0xE000EFF0) -- CPU_ReadMem(16 bytes @ 0xE000EFE0)ROMTbl 0 [0]: FFF0F000, CID: B105E00D, PID: 001BB000 SCS -- CPU_ReadMem(16 bytes @ 0xE0001FF0) -- CPU_ReadMem(16 bytes @ 0xE0001FE0)ROMTbl 0 [1]: FFF02000, CID: B105E00D, PID: 001BB002 DWT -- CPU_ReadMem(16 bytes @ 0xE0002FF0)
 -- CPU_ReadMem(16 bytes @ 0xE0002FE0)ROMTbl 0 [2]: FFF03000, CID: B105E00D, PID: 000BB003 FPB -- CPU_ReadMem(16 bytes @ 0xE0000FF0) -- CPU_ReadMem(16 bytes @ 0xE0000FE0)ROMTbl 0 [3]: FFF01000, CID: B105E00D, PID: 001BB001 ITM -- CPU_ReadMem(16 bytes @ 0xE00FF010) -- CPU_ReadMem(16 bytes @ 0xE0040FF0) -- CPU_ReadMem(16 bytes @ 0xE0040FE0)ROMTbl 0 [4]: FFF41000, CID: B105900D, PID: 001BB923 TPIU-Lite -- CPU_ReadMem(16 bytes @ 0xE0041FF0) -- CPU_ReadMem(16 bytes @ 0xE0041FE0)
ROMTbl 0 [5]: FFF42000, CID: B105900D, PID: 101BB924 ETM-M3 >0x0D TIF> >0x21 TIF>  returns 0x1BA01477 (0080ms, 0264ms total)
T4170 000:312 JLINK_GetDLLVersion()  returns 61009 (0000ms, 0264ms total)
T4170 000:312 JLINK_CORE_GetFound()  returns 0x30000FF (0000ms, 0264ms total)
T4170 000:312 JLINK_GetDebugInfo(0x100) -- Value=0xE00FF000  returns 0x00 (0000ms, 0264ms total)
T4170 000:317 JLINK_GetDebugInfo(0x100) -- Value=0xE00FF000  returns 0x00 (0000ms, 0264ms total)
T4170 000:317 JLINK_GetDebugInfo(0x101) -- Value=0xE0041000  returns 0x00 (0000ms, 0264ms total)
T4170 000:317 JLINK_GetDebugInfo(0x102) -- Value=0x00000000  returns 0x00 (0000ms, 0264ms total)
T4170 000:317 JLINK_GetDebugInfo(0x103) -- Value=0xE0040000  returns 0x00 (0000ms, 0264ms total)
T4170 000:317 JLINK_GetDebugInfo(0x104) -- Value=0xE0000000  returns 0x00 (0000ms, 0264ms total)
T4170 000:317 JLINK_GetDebugInfo(0x105) -- Value=0xE0001000  returns 0x00 (0000ms, 0264ms total)
T4170 000:317 JLINK_GetDebugInfo(0x106) -- Value=0xE0002000  returns 0x00 (0000ms, 0264ms total)
T4170 000:317 JLINK_GetDebugInfo(0x107) -- Value=0xE000E000  returns 0x00 (0000ms, 0264ms total)
T4170 000:317 JLINK_GetDebugInfo(0x10C) -- Value=0xE000EDF0  returns 0x00 (0000ms, 0264ms total)
T4170 000:317 JLINK_ReadMemU32(0xE000ED00, 0x0001 Items, ...) -- CPU is running -- CPU_ReadMem(4 bytes @ 0xE000ED00) - Data: 31 C2 1F 41  returns 0x01 (0000ms, 0264ms total)
T4170 000:317 JLINK_SetResetType(JLINKARM_RESET_TYPE_NORMAL)  returns JLINKARM_RESET_TYPE_NORMAL (0000ms, 0264ms total)
T4170 000:317 JLINK_Reset() -- CPU is running -- CPU_WriteMem(4 bytes @ 0xE000EDF0) -- CPU is running -- CPU_WriteMem(4 bytes @ 0xE000EDFC) >0x35 TIF> -- CPU is running -- CPU_WriteMem(4 bytes @ 0xE000ED0C) -- CPU is running -- CPU_ReadMem(4 bytes @ 0xE000EDF0) -- CPU is running -- CPU_ReadMem(4 bytes @ 0xE000EDF0) -- CPU is running -- CPU_WriteMem(4 bytes @ 0xE000EDF0) -- CPU is running -- CPU_WriteMem(4 bytes @ 0xE000EDFC) -- CPU is running -- CPU_ReadMem(4 bytes @ 0xE000EDF0)
 -- CPU_WriteMem(4 bytes @ 0xE0002000) -- CPU_ReadMem(4 bytes @ 0xE000EDFC) -- CPU_ReadMem(4 bytes @ 0xE0001000) (0016ms, 0280ms total)
T4170 000:333 JLINK_Halt()  returns 0x00 (0000ms, 0280ms total)
T4170 000:333 JLINK_IsHalted()  returns TRUE (0000ms, 0280ms total)
T4170 000:333 JLINK_ReadMemU32(0xE000EDF0, 0x0001 Items, ...) -- CPU_ReadMem(4 bytes @ 0xE000EDF0) - Data: 03 00 03 00  returns 0x01 (0000ms, 0280ms total)
T4170 000:333 JLINK_WriteU32(0xE000EDF0, 0xA05F0003) -- CPU_WriteMem(4 bytes @ 0xE000EDF0)  returns 0x00 (0000ms, 0280ms total)
T4170 000:333 JLINK_WriteU32(0xE000EDFC, 0x01000000) -- CPU_WriteMem(4 bytes @ 0xE000EDFC)  returns 0x00 (0001ms, 0281ms total)
T4170 000:353 JLINK_GetHWStatus(...)  returns 0x00 (0000ms, 0281ms total)
T4170 000:366 JLINK_GetNumBPUnits(Type = 0xFFFFFF00)  returns 0x06 (0000ms, 0281ms total)
T4170 000:366 JLINK_GetNumBPUnits(Type = 0xF0)  returns 0x2000 (0000ms, 0281ms total)
T4170 000:366 JLINK_GetNumWPUnits()  returns 0x04 (0000ms, 0281ms total)
T4170 000:385 JLINK_GetSpeed()  returns 0xFA0 (0000ms, 0281ms total)
T4170 000:393 JLINK_ReadMemU32(0xE000E004, 0x0001 Items, ...) -- CPU_ReadMem(4 bytes @ 0xE000E004) - Data: 01 00 00 00  returns 0x01 (0001ms, 0282ms total)
T4170 000:394 JLINK_ReadMemU32(0xE000E004, 0x0001 Items, ...) -- CPU_ReadMem(4 bytes @ 0xE000E004) - Data: 01 00 00 00  returns 0x01 (0000ms, 0282ms total)
T4170 000:394 JLINK_WriteMem(0xE0001000, 0x001C Bytes, ...) - Data: 01 00 00 00 00 00 00 00 00 00 00 00 00 00 00 00 ... -- CPU_WriteMem(28 bytes @ 0xE0001000)  returns 0x1C (0001ms, 0283ms total)
T4170 000:395 JLINK_ReadMem (0xE0001000, 0x001C Bytes, ...) -- CPU_ReadMem(28 bytes @ 0xE0001000) - Data: 01 00 00 40 00 00 00 00 00 00 00 00 00 00 00 00 ...  returns 0x00 (0000ms, 0283ms total)
T4170 000:395 JLINK_Halt()  returns 0x00 (0001ms, 0284ms total)
T4170 000:396 JLINK_IsHalted()  returns TRUE (0000ms, 0284ms total)
T4170 000:399 JLINK_WriteMem(0x20000000, 0x0164 Bytes, ...) - Data: 00 BE 0A E0 0D 78 2D 06 68 40 08 24 40 00 00 D3 ... -- CPU_WriteMem(356 bytes @ 0x20000000)  returns 0x164 (0002ms, 0286ms total)
T4170 000:401 JLINK_WriteReg(R0, 0x08000000)  returns 0x00 (0000ms, 0286ms total)
T4170 000:401 JLINK_WriteReg(R1, 0x00B71B00)  returns 0x00 (0000ms, 0286ms total)
T4170 000:401 JLINK_WriteReg(R2, 0x00000001)  returns 0x00 (0000ms, 0286ms total)
T4170 000:401 JLINK_WriteReg(R3, 0x00000000)  returns 0x00 (0000ms, 0286ms total)
T4170 000:401 JLINK_WriteReg(R4, 0x00000000)  returns 0x00 (0000ms, 0286ms total)
T4170 000:401 JLINK_WriteReg(R5, 0x00000000)  returns 0x00 (0000ms, 0286ms total)
T4170 000:401 JLINK_WriteReg(R6, 0x00000000)  returns 0x00 (0000ms, 0286ms total)
T4170 000:401 JLINK_WriteReg(R7, 0x00000000)  returns 0x00 (0000ms, 0286ms total)
T4170 000:401 JLINK_WriteReg(R8, 0x00000000)  returns 0x00 (0000ms, 0286ms total)
T4170 000:401 JLINK_WriteReg(R9, 0x20000160)  returns 0x00 (0000ms, 0286ms total)
T4170 000:401 JLINK_WriteReg(R10, 0x00000000)  returns 0x00 (0000ms, 0286ms total)
T4170 000:401 JLINK_WriteReg(R11, 0x00000000)  returns 0x00 (0000ms, 0286ms total)
T4170 000:401 JLINK_WriteReg(R12, 0x00000000)  returns 0x00 (0000ms, 0286ms total)
T4170 000:401 JLINK_WriteReg(R13 (SP), 0x20001000)  returns 0x00 (0000ms, 0286ms total)
T4170 000:401 JLINK_WriteReg(R14, 0x20000001)  returns 0x00 (0000ms, 0286ms total)
T4170 000:401 JLINK_WriteReg(R15 (PC), 0x20000038)  returns 0x00 (0000ms, 0286ms total)
T4170 000:401 JLINK_WriteReg(XPSR, 0x01000000)  returns 0x00 (0000ms, 0286ms total)
T4170 000:401 JLINK_WriteReg(MSP, 0x20001000)  returns 0x00 (0000ms, 0286ms total)
T4170 000:401 JLINK_WriteReg(PSP, 0x20001000)  returns 0x00 (0000ms, 0286ms total)
T4170 000:401 JLINK_WriteReg(CFBP, 0x00000000)  returns 0x00 (0000ms, 0286ms total)
T4170 000:401 JLINK_SetBPEx(Addr = 0x20000000, Type = 0xFFFFFFF2) -- CPU_ReadMem(2 bytes @ 0x20000000)  returns 0x00000001 (0001ms, 0287ms total)
T4170 000:402 JLINK_Go() -- CPU_WriteMem(2 bytes @ 0x20000000) -- CPU_ReadMem(4 bytes @ 0xE0001000) -- CPU_WriteMem(4 bytes @ 0xE0002008) -- CPU_WriteMem(4 bytes @ 0xE000200C) -- CPU_WriteMem(4 bytes @ 0xE0002010) -- CPU_WriteMem(4 bytes @ 0xE0002014) -- CPU_WriteMem(4 bytes @ 0xE0002018) -- CPU_WriteMem(4 bytes @ 0xE000201C) -- CPU_WriteMem(4 bytes @ 0xE0001004) (0003ms, 0290ms total)
T4170 000:406 JLINK_IsHalted() -- CPU_ReadMem(2 bytes @ 0x20000000)  returns TRUE (0002ms, 0293ms total)
T4170 000:408 JLINK_ReadReg(R15 (PC))  returns 0x20000000 (0000ms, 0291ms total)
T4170 000:408 JLINK_ClrBPEx(BPHandle = 0x00000001)  returns 0x00 (0000ms, 0291ms total)
T4170 000:408 JLINK_ReadReg(R0)  returns 0x00000000 (0000ms, 0291ms total)
T4170 000:408 JLINK_WriteReg(R0, 0x08000000)  returns 0x00 (0000ms, 0291ms total)
T4170 000:408 JLINK_WriteReg(R1, 0x00B71B00)  returns 0x00 (0000ms, 0291ms total)
T4170 000:408 JLINK_WriteReg(R2, 0x00000001)  returns 0x00 (0000ms, 0291ms total)
T4170 000:408 JLINK_WriteReg(R3, 0x00000000)  returns 0x00 (0000ms, 0291ms total)
T4170 000:408 JLINK_WriteReg(R4, 0x00000000)  returns 0x00 (0000ms, 0291ms total)
T4170 000:408 JLINK_WriteReg(R5, 0x00000000)  returns 0x00 (0000ms, 0291ms total)
T4170 000:408 JLINK_WriteReg(R6, 0x00000000)  returns 0x00 (0000ms, 0291ms total)
T4170 000:408 JLINK_WriteReg(R7, 0x00000000)  returns 0x00 (0000ms, 0291ms total)
T4170 000:408 JLINK_WriteReg(R8, 0x00000000)  returns 0x00 (0000ms, 0291ms total)
T4170 000:408 JLINK_WriteReg(R9, 0x20000160)  returns 0x00 (0000ms, 0291ms total)
T4170 000:408 JLINK_WriteReg(R10, 0x00000000)  returns 0x00 (0000ms, 0291ms total)
T4170 000:408 JLINK_WriteReg(R11, 0x00000000)  returns 0x00 (0000ms, 0291ms total)
T4170 000:408 JLINK_WriteReg(R12, 0x00000000)  returns 0x00 (0000ms, 0291ms total)
T4170 000:408 JLINK_WriteReg(R13 (SP), 0x20001000)  returns 0x00 (0000ms, 0291ms total)
T4170 000:408 JLINK_WriteReg(R14, 0x20000001)  returns 0x00 (0000ms, 0291ms total)
T4170 000:408 JLINK_WriteReg(R15 (PC), 0x2000007C)  returns 0x00 (0000ms, 0291ms total)
T4170 000:408 JLINK_WriteReg(XPSR, 0x01000000)  returns 0x00 (0000ms, 0291ms total)
T4170 000:408 JLINK_WriteReg(MSP, 0x20001000)  returns 0x00 (0000ms, 0291ms total)
T4170 000:408 JLINK_WriteReg(PSP, 0x20001000)  returns 0x00 (0000ms, 0291ms total)
T4170 000:408 JLINK_WriteReg(CFBP, 0x00000000)  returns 0x00 (0000ms, 0291ms total)
T4170 000:408 JLINK_SetBPEx(Addr = 0x20000000, Type = 0xFFFFFFF2)  returns 0x00000002 (0000ms, 0291ms total)
T4170 000:408 JLINK_Go() -- CPU_ReadMem(4 bytes @ 0xE0001000) (0002ms, 0293ms total)
T4170 000:410 JLINK_IsHalted()  returns FALSE (0000ms, 0293ms total)
T4170 000:482 JLINK_IsHalted() -- CPU_ReadMem(2 bytes @ 0x20000000)  returns TRUE (0006ms, 0299ms total)
T4170 000:488 JLINK_ReadReg(R15 (PC))  returns 0x20000000 (0000ms, 0293ms total)
T4170 000:488 JLINK_ClrBPEx(BPHandle = 0x00000002)  returns 0x00 (0000ms, 0293ms total)
T4170 000:488 JLINK_ReadReg(R0)  returns 0x00000000 (0000ms, 0293ms total)
T4170 000:542 JLINK_WriteReg(R0, 0x00000001)  returns 0x00 (0000ms, 0293ms total)
T4170 000:542 JLINK_WriteReg(R1, 0x00B71B00)  returns 0x00 (0000ms, 0293ms total)
T4170 000:542 JLINK_WriteReg(R2, 0x00000001)  returns 0x00 (0000ms, 0293ms total)
T4170 000:542 JLINK_WriteReg(R3, 0x00000000)  returns 0x00 (0000ms, 0293ms total)
T4170 000:542 JLINK_WriteReg(R4, 0x00000000)  returns 0x00 (0000ms, 0293ms total)
T4170 000:542 JLINK_WriteReg(R5, 0x00000000)  returns 0x00 (0000ms, 0293ms total)
T4170 000:542 JLINK_WriteReg(R6, 0x00000000)  returns 0x00 (0000ms, 0293ms total)
T4170 000:542 JLINK_WriteReg(R7, 0x00000000)  returns 0x00 (0000ms, 0293ms total)
T4170 000:542 JLINK_WriteReg(R8, 0x00000000)  returns 0x00 (0000ms, 0293ms total)
T4170 000:542 JLINK_WriteReg(R9, 0x20000160)  returns 0x00 (0000ms, 0293ms total)
T4170 000:542 JLINK_WriteReg(R10, 0x00000000)  returns 0x00 (0000ms, 0293ms total)
T4170 000:542 JLINK_WriteReg(R11, 0x00000000)  returns 0x00 (0000ms, 0293ms total)
T4170 000:542 JLINK_WriteReg(R12, 0x00000000)  returns 0x00 (0000ms, 0293ms total)
T4170 000:542 JLINK_WriteReg(R13 (SP), 0x20001000)  returns 0x00 (0000ms, 0293ms total)
T4170 000:542 JLINK_WriteReg(R14, 0x20000001)  returns 0x00 (0000ms, 0293ms total)
T4170 000:542 JLINK_WriteReg(R15 (PC), 0x2000006A)  returns 0x00 (0000ms, 0293ms total)
T4170 000:542 JLINK_WriteReg(XPSR, 0x01000000)  returns 0x00 (0000ms, 0293ms total)
T4170 000:542 JLINK_WriteReg(MSP, 0x20001000)  returns 0x00 (0000ms, 0293ms total)
T4170 000:542 JLINK_WriteReg(PSP, 0x20001000)  returns 0x00 (0000ms, 0293ms total)
T4170 000:542 JLINK_WriteReg(CFBP, 0x00000000)  returns 0x00 (0000ms, 0293ms total)
T4170 000:542 JLINK_SetBPEx(Addr = 0x20000000, Type = 0xFFFFFFF2)  returns 0x00000003 (0000ms, 0293ms total)
T4170 000:542 JLINK_Go() -- CPU_ReadMem(4 bytes @ 0xE0001000) (0001ms, 0294ms total)
T4170 000:543 JLINK_IsHalted() -- CPU_ReadMem(2 bytes @ 0x20000000)  returns TRUE (0002ms, 0296ms total)
T4170 000:545 JLINK_ReadReg(R15 (PC))  returns 0x20000000 (0000ms, 0294ms total)
T4170 000:545 JLINK_ClrBPEx(BPHandle = 0x00000003)  returns 0x00 (0000ms, 0294ms total)
T4170 000:545 JLINK_ReadReg(R0)  returns 0x00000000 (0000ms, 0294ms total)
T4170 000:553 JLINK_WriteMem(0x20000000, 0x0164 Bytes, ...) - Data: 00 BE 0A E0 0D 78 2D 06 68 40 08 24 40 00 00 D3 ... -- CPU_WriteMem(356 bytes @ 0x20000000)  returns 0x164 (0002ms, 0296ms total)
T4170 000:555 JLINK_WriteReg(R0, 0x08000000)  returns 0x00 (0000ms, 0296ms total)
T4170 000:555 JLINK_WriteReg(R1, 0x00B71B00)  returns 0x00 (0000ms, 0296ms total)
T4170 000:555 JLINK_WriteReg(R2, 0x00000002)  returns 0x00 (0000ms, 0296ms total)
T4170 000:555 JLINK_WriteReg(R3, 0x00000000)  returns 0x00 (0000ms, 0296ms total)
T4170 000:555 JLINK_WriteReg(R4, 0x00000000)  returns 0x00 (0000ms, 0296ms total)
T4170 000:555 JLINK_WriteReg(R5, 0x00000000)  returns 0x00 (0000ms, 0296ms total)
T4170 000:555 JLINK_WriteReg(R6, 0x00000000)  returns 0x00 (0000ms, 0296ms total)
T4170 000:555 JLINK_WriteReg(R7, 0x00000000)  returns 0x00 (0000ms, 0296ms total)
T4170 000:555 JLINK_WriteReg(R8, 0x00000000)  returns 0x00 (0000ms, 0296ms total)
T4170 000:555 JLINK_WriteReg(R9, 0x20000160)  returns 0x00 (0000ms, 0296ms total)
T4170 000:555 JLINK_WriteReg(R10, 0x00000000)  returns 0x00 (0000ms, 0296ms total)
T4170 000:555 JLINK_WriteReg(R11, 0x00000000)  returns 0x00 (0000ms, 0296ms total)
T4170 000:555 JLINK_WriteReg(R12, 0x00000000)  returns 0x00 (0000ms, 0296ms total)
T4170 000:555 JLINK_WriteReg(R13 (SP), 0x20001000)  returns 0x00 (0000ms, 0296ms total)
T4170 000:555 JLINK_WriteReg(R14, 0x20000001)  returns 0x00 (0000ms, 0296ms total)
T4170 000:555 JLINK_WriteReg(R15 (PC), 0x20000038)  returns 0x00 (0000ms, 0296ms total)
T4170 000:555 JLINK_WriteReg(XPSR, 0x01000000)  returns 0x00 (0000ms, 0296ms total)
T4170 000:555 JLINK_WriteReg(MSP, 0x20001000)  returns 0x00 (0000ms, 0296ms total)
T4170 000:555 JLINK_WriteReg(PSP, 0x20001000)  returns 0x00 (0000ms, 0296ms total)
T4170 000:555 JLINK_WriteReg(CFBP, 0x00000000)  returns 0x00 (0000ms, 0296ms total)
T4170 000:555 JLINK_SetBPEx(Addr = 0x20000000, Type = 0xFFFFFFF2) -- CPU_ReadMem(2 bytes @ 0x20000000)  returns 0x00000004 (0000ms, 0296ms total)
T4170 000:555 JLINK_Go() -- CPU_WriteMem(2 bytes @ 0x20000000) -- CPU_ReadMem(4 bytes @ 0xE0001000) (0002ms, 0298ms total)
T4170 000:557 JLINK_IsHalted() -- CPU_ReadMem(2 bytes @ 0x20000000)  returns TRUE (0002ms, 0300ms total)
T4170 000:559 JLINK_ReadReg(R15 (PC))  returns 0x20000000 (0000ms, 0298ms total)
T4170 000:559 JLINK_ClrBPEx(BPHandle = 0x00000004)  returns 0x00 (0000ms, 0298ms total)
T4170 000:559 JLINK_ReadReg(R0)  returns 0x00000000 (0000ms, 0298ms total)
T4170 000:559 JLINK_WriteMem(0x20000164, 0x0400 Bytes, ...) - Data: 38 94 00 20 45 01 00 08 1B 14 00 08 B9 0E 00 08 ... -- CPU_WriteMem(1024 bytes @ 0x20000164)  returns 0x400 (0004ms, 0302ms total)
T4170 000:563 JLINK_WriteReg(R0, 0x08000000)  returns 0x00 (0000ms, 0302ms total)
T4170 000:563 JLINK_WriteReg(R1, 0x00000400)  returns 0x00 (0000ms, 0302ms total)
T4170 000:563 JLINK_WriteReg(R2, 0x20000164)  returns 0x00 (0000ms, 0302ms total)
T4170 000:563 JLINK_WriteReg(R3, 0x00000000)  returns 0x00 (0000ms, 0302ms total)
T4170 000:563 JLINK_WriteReg(R4, 0x00000000)  returns 0x00 (0000ms, 0302ms total)
T4170 000:563 JLINK_WriteReg(R5, 0x00000000)  returns 0x00 (0000ms, 0302ms total)
T4170 000:563 JLINK_WriteReg(R6, 0x00000000)  returns 0x00 (0000ms, 0302ms total)
T4170 000:563 JLINK_WriteReg(R7, 0x00000000)  returns 0x00 (0000ms, 0302ms total)
T4170 000:563 JLINK_WriteReg(R8, 0x00000000)  returns 0x00 (0000ms, 0302ms total)
T4170 000:563 JLINK_WriteReg(R9, 0x20000160)  returns 0x00 (0000ms, 0302ms total)
T4170 000:563 JLINK_WriteReg(R10, 0x00000000)  returns 0x00 (0000ms, 0302ms total)
T4170 000:563 JLINK_WriteReg(R11, 0x00000000)  returns 0x00 (0000ms, 0302ms total)
T4170 000:563 JLINK_WriteReg(R12, 0x00000000)  returns 0x00 (0000ms, 0302ms total)
T4170 000:563 JLINK_WriteReg(R13 (SP), 0x20001000)  returns 0x00 (0000ms, 0302ms total)
T4170 000:563 JLINK_WriteReg(R14, 0x20000001)  returns 0x00 (0000ms, 0302ms total)
T4170 000:563 JLINK_WriteReg(R15 (PC), 0x200000F4)  returns 0x00 (0000ms, 0302ms total)
T4170 000:563 JLINK_WriteReg(XPSR, 0x01000000)  returns 0x00 (0000ms, 0302ms total)
T4170 000:563 JLINK_WriteReg(MSP, 0x20001000)  returns 0x00 (0000ms, 0302ms total)
T4170 000:563 JLINK_WriteReg(PSP, 0x20001000)  returns 0x00 (0000ms, 0302ms total)
T4170 000:563 JLINK_WriteReg(CFBP, 0x00000000)  returns 0x00 (0000ms, 0302ms total)
T4170 000:563 JLINK_SetBPEx(Addr = 0x20000000, Type = 0xFFFFFFF2)  returns 0x00000005 (0000ms, 0302ms total)
T4170 000:563 JLINK_Go() -- CPU_ReadMem(4 bytes @ 0xE0001000) (0002ms, 0304ms total)
T4170 000:565 JLINK_IsHalted()  returns FALSE (0000ms, 0304ms total)
T4170 000:569 JLINK_IsHalted()  returns FALSE (0000ms, 0304ms total)
T4170 000:575 JLINK_IsHalted()  returns FALSE (0000ms, 0304ms total)
T4170 000:577 JLINK_IsHalted()  returns FALSE (0000ms, 0304ms total)
T4170 000:579 JLINK_IsHalted()  returns FALSE (0000ms, 0304ms total)
T4170 000:581 JLINK_IsHalted()  returns FALSE (0000ms, 0304ms total)
T4170 000:583 JLINK_IsHalted()  returns FALSE (0000ms, 0304ms total)
T4170 000:586 JLINK_IsHalted()  returns FALSE (0000ms, 0304ms total)
T4170 000:588 JLINK_IsHalted()  returns FALSE (0000ms, 0304ms total)
T4170 000:590 JLINK_IsHalted()  returns FALSE (0000ms, 0304ms total)
T4170 000:592 JLINK_IsHalted()  returns FALSE (0000ms, 0304ms total)
T4170 000:594 JLINK_IsHalted()  returns FALSE (0000ms, 0304ms total)
T4170 000:596 JLINK_IsHalted() -- CPU_ReadMem(2 bytes @ 0x20000000)  returns TRUE (0002ms, 0306ms total)
T4170 000:598 JLINK_ReadReg(R15 (PC))  returns 0x20000000 (0000ms, 0304ms total)
T4170 000:598 JLINK_ClrBPEx(BPHandle = 0x00000005)  returns 0x00 (0000ms, 0304ms total)
T4170 000:598 JLINK_ReadReg(R0)  returns 0x00000000 (0000ms, 0304ms total)
T4170 000:599 JLINK_WriteMem(0x20000164, 0x0400 Bytes, ...) - Data: 08 01 81 60 70 47 21 B1 82 68 42 F4 A0 02 82 60 ... -- CPU_WriteMem(1024 bytes @ 0x20000164)  returns 0x400 (0004ms, 0308ms total)
T4170 000:603 JLINK_WriteReg(R0, 0x08000400)  returns 0x00 (0000ms, 0308ms total)
T4170 000:603 JLINK_WriteReg(R1, 0x00000400)  returns 0x00 (0000ms, 0308ms total)
T4170 000:603 JLINK_WriteReg(R2, 0x20000164)  returns 0x00 (0000ms, 0308ms total)
T4170 000:603 JLINK_WriteReg(R3, 0x00000000)  returns 0x00 (0000ms, 0308ms total)
T4170 000:603 JLINK_WriteReg(R4, 0x00000000)  returns 0x00 (0000ms, 0308ms total)
T4170 000:603 JLINK_WriteReg(R5, 0x00000000)  returns 0x00 (0000ms, 0308ms total)
T4170 000:603 JLINK_WriteReg(R6, 0x00000000)  returns 0x00 (0000ms, 0308ms total)
T4170 000:603 JLINK_WriteReg(R7, 0x00000000)  returns 0x00 (0000ms, 0308ms total)
T4170 000:603 JLINK_WriteReg(R8, 0x00000000)  returns 0x00 (0000ms, 0308ms total)
T4170 000:603 JLINK_WriteReg(R9, 0x20000160)  returns 0x00 (0000ms, 0308ms total)
T4170 000:603 JLINK_WriteReg(R10, 0x00000000)  returns 0x00 (0000ms, 0308ms total)
T4170 000:603 JLINK_WriteReg(R11, 0x00000000)  returns 0x00 (0000ms, 0308ms total)
T4170 000:603 JLINK_WriteReg(R12, 0x00000000)  returns 0x00 (0000ms, 0308ms total)
T4170 000:603 JLINK_WriteReg(R13 (SP), 0x20001000)  returns 0x00 (0000ms, 0308ms total)
T4170 000:603 JLINK_WriteReg(R14, 0x20000001)  returns 0x00 (0000ms, 0308ms total)
T4170 000:603 JLINK_WriteReg(R15 (PC), 0x200000F4)  returns 0x00 (0000ms, 0308ms total)
T4170 000:603 JLINK_WriteReg(XPSR, 0x01000000)  returns 0x00 (0000ms, 0308ms total)
T4170 000:603 JLINK_WriteReg(MSP, 0x20001000)  returns 0x00 (0000ms, 0308ms total)
T4170 000:603 JLINK_WriteReg(PSP, 0x20001000)  returns 0x00 (0000ms, 0308ms total)
T4170 000:603 JLINK_WriteReg(CFBP, 0x00000000)  returns 0x00 (0000ms, 0308ms total)
T4170 000:603 JLINK_SetBPEx(Addr = 0x20000000, Type = 0xFFFFFFF2)  returns 0x00000006 (0000ms, 0308ms total)
T4170 000:603 JLINK_Go() -- CPU_ReadMem(4 bytes @ 0xE0001000) (0000ms, 0308ms total)
T4170 000:603 JLINK_IsHalted()  returns FALSE (0001ms, 0309ms total)
T4170 000:607 JLINK_IsHalted()  returns FALSE (0000ms, 0308ms total)
T4170 000:609 JLINK_IsHalted()  returns FALSE (0000ms, 0308ms total)
T4170 000:611 JLINK_IsHalted()  returns FALSE (0000ms, 0308ms total)
T4170 000:613 JLINK_IsHalted()  returns FALSE (0000ms, 0308ms total)
T4170 000:615 JLINK_IsHalted()  returns FALSE (0000ms, 0308ms total)
T4170 000:617 JLINK_IsHalted()  returns FALSE (0000ms, 0308ms total)
T4170 000:619 JLINK_IsHalted()  returns FALSE (0000ms, 0308ms total)
T4170 000:621 JLINK_IsHalted()  returns FALSE (0000ms, 0308ms total)
T4170 000:623 JLINK_IsHalted()  returns FALSE (0000ms, 0308ms total)
T4170 000:625 JLINK_IsHalted()  returns FALSE (0000ms, 0308ms total)
T4170 000:627 JLINK_IsHalted()  returns FALSE (0000ms, 0308ms total)
T4170 000:629 JLINK_IsHalted()  returns FALSE (0000ms, 0308ms total)
T4170 000:631 JLINK_IsHalted()  returns FALSE (0000ms, 0308ms total)
T4170 000:633 JLINK_IsHalted()  returns FALSE (0000ms, 0308ms total)
T4170 000:634 JLINK_IsHalted()  returns FALSE (0000ms, 0308ms total)
T4170 000:636 JLINK_IsHalted() -- CPU_ReadMem(2 bytes @ 0x20000000)  returns TRUE (0002ms, 0310ms total)
T4170 000:638 JLINK_ReadReg(R15 (PC))  returns 0x20000000 (0000ms, 0308ms total)
T4170 000:638 JLINK_ClrBPEx(BPHandle = 0x00000006)  returns 0x00 (0000ms, 0308ms total)
T4170 000:638 JLINK_ReadReg(R0)  returns 0x00000000 (0000ms, 0308ms total)
T4170 000:638 JLINK_WriteMem(0x20000164, 0x0400 Bytes, ...) - Data: 10 B5 00 24 00 BF 00 BF FF F7 B2 FC 04 46 00 BF ... -- CPU_WriteMem(1024 bytes @ 0x20000164)  returns 0x400 (0004ms, 0312ms total)
T4170 000:642 JLINK_WriteReg(R0, 0x08000800)  returns 0x00 (0000ms, 0312ms total)
T4170 000:642 JLINK_WriteReg(R1, 0x00000400)  returns 0x00 (0000ms, 0312ms total)
T4170 000:642 JLINK_WriteReg(R2, 0x20000164)  returns 0x00 (0000ms, 0312ms total)
T4170 000:642 JLINK_WriteReg(R3, 0x00000000)  returns 0x00 (0000ms, 0312ms total)
T4170 000:642 JLINK_WriteReg(R4, 0x00000000)  returns 0x00 (0000ms, 0312ms total)
T4170 000:642 JLINK_WriteReg(R5, 0x00000000)  returns 0x00 (0000ms, 0312ms total)
T4170 000:642 JLINK_WriteReg(R6, 0x00000000)  returns 0x00 (0000ms, 0312ms total)
T4170 000:642 JLINK_WriteReg(R7, 0x00000000)  returns 0x00 (0000ms, 0312ms total)
T4170 000:642 JLINK_WriteReg(R8, 0x00000000)  returns 0x00 (0001ms, 0313ms total)
T4170 000:643 JLINK_WriteReg(R9, 0x20000160)  returns 0x00 (0000ms, 0313ms total)
T4170 000:643 JLINK_WriteReg(R10, 0x00000000)  returns 0x00 (0000ms, 0313ms total)
T4170 000:643 JLINK_WriteReg(R11, 0x00000000)  returns 0x00 (0000ms, 0313ms total)
T4170 000:643 JLINK_WriteReg(R12, 0x00000000)  returns 0x00 (0000ms, 0313ms total)
T4170 000:643 JLINK_WriteReg(R13 (SP), 0x20001000)  returns 0x00 (0000ms, 0313ms total)
T4170 000:643 JLINK_WriteReg(R14, 0x20000001)  returns 0x00 (0000ms, 0313ms total)
T4170 000:643 JLINK_WriteReg(R15 (PC), 0x200000F4)  returns 0x00 (0000ms, 0313ms total)
T4170 000:643 JLINK_WriteReg(XPSR, 0x01000000)  returns 0x00 (0000ms, 0313ms total)
T4170 000:643 JLINK_WriteReg(MSP, 0x20001000)  returns 0x00 (0000ms, 0313ms total)
T4170 000:643 JLINK_WriteReg(PSP, 0x20001000)  returns 0x00 (0000ms, 0313ms total)
T4170 000:643 JLINK_WriteReg(CFBP, 0x00000000)  returns 0x00 (0000ms, 0313ms total)
T4170 000:643 JLINK_SetBPEx(Addr = 0x20000000, Type = 0xFFFFFFF2)  returns 0x00000007 (0000ms, 0313ms total)
T4170 000:643 JLINK_Go() -- CPU_ReadMem(4 bytes @ 0xE0001000) (0001ms, 0314ms total)
T4170 000:644 JLINK_IsHalted()  returns FALSE (0000ms, 0314ms total)
T4170 000:646 JLINK_IsHalted()  returns FALSE (0000ms, 0314ms total)
T4170 000:648 JLINK_IsHalted()  returns FALSE (0000ms, 0314ms total)
T4170 000:650 JLINK_IsHalted()  returns FALSE (0000ms, 0314ms total)
T4170 000:653 JLINK_IsHalted()  returns FALSE (0000ms, 0314ms total)
T4170 000:655 JLINK_IsHalted()  returns FALSE (0000ms, 0314ms total)
T4170 000:657 JLINK_IsHalted()  returns FALSE (0000ms, 0314ms total)
T4170 000:659 JLINK_IsHalted()  returns FALSE (0000ms, 0314ms total)
T4170 000:661 JLINK_IsHalted()  returns FALSE (0000ms, 0314ms total)
T4170 000:663 JLINK_IsHalted()  returns FALSE (0000ms, 0314ms total)
T4170 000:665 JLINK_IsHalted()  returns FALSE (0000ms, 0314ms total)
T4170 000:667 JLINK_IsHalted()  returns FALSE (0000ms, 0314ms total)
T4170 000:669 JLINK_IsHalted()  returns FALSE (0000ms, 0314ms total)
T4170 000:671 JLINK_IsHalted()  returns FALSE (0000ms, 0314ms total)
T4170 000:673 JLINK_IsHalted()  returns FALSE (0000ms, 0314ms total)
T4170 000:675 JLINK_IsHalted()  returns FALSE (0000ms, 0314ms total)
T4170 000:677 JLINK_IsHalted() -- CPU_ReadMem(2 bytes @ 0x20000000)  returns TRUE (0002ms, 0316ms total)
T4170 000:679 JLINK_ReadReg(R15 (PC))  returns 0x20000000 (0000ms, 0314ms total)
T4170 000:679 JLINK_ClrBPEx(BPHandle = 0x00000007)  returns 0x00 (0000ms, 0314ms total)
T4170 000:679 JLINK_ReadReg(R0)  returns 0x00000000 (0000ms, 0314ms total)
T4170 000:679 JLINK_WriteMem(0x20000164, 0x0400 Bytes, ...) - Data: 09 4B 0C 33 1A 60 0D E0 07 49 42 79 11 44 0A 68 ... -- CPU_WriteMem(1024 bytes @ 0x20000164)  returns 0x400 (0004ms, 0318ms total)
T4170 000:683 JLINK_WriteReg(R0, 0x08000C00)  returns 0x00 (0000ms, 0318ms total)
T4170 000:683 JLINK_WriteReg(R1, 0x00000400)  returns 0x00 (0000ms, 0318ms total)
T4170 000:683 JLINK_WriteReg(R2, 0x20000164)  returns 0x00 (0000ms, 0318ms total)
T4170 000:683 JLINK_WriteReg(R3, 0x00000000)  returns 0x00 (0000ms, 0318ms total)
T4170 000:683 JLINK_WriteReg(R4, 0x00000000)  returns 0x00 (0000ms, 0318ms total)
T4170 000:683 JLINK_WriteReg(R5, 0x00000000)  returns 0x00 (0000ms, 0318ms total)
T4170 000:683 JLINK_WriteReg(R6, 0x00000000)  returns 0x00 (0000ms, 0318ms total)
T4170 000:683 JLINK_WriteReg(R7, 0x00000000)  returns 0x00 (0000ms, 0318ms total)
T4170 000:683 JLINK_WriteReg(R8, 0x00000000)  returns 0x00 (0000ms, 0318ms total)
T4170 000:683 JLINK_WriteReg(R9, 0x20000160)  returns 0x00 (0000ms, 0318ms total)
T4170 000:683 JLINK_WriteReg(R10, 0x00000000)  returns 0x00 (0000ms, 0318ms total)
T4170 000:683 JLINK_WriteReg(R11, 0x00000000)  returns 0x00 (0000ms, 0318ms total)
T4170 000:683 JLINK_WriteReg(R12, 0x00000000)  returns 0x00 (0000ms, 0318ms total)
T4170 000:683 JLINK_WriteReg(R13 (SP), 0x20001000)  returns 0x00 (0000ms, 0318ms total)
T4170 000:683 JLINK_WriteReg(R14, 0x20000001)  returns 0x00 (0000ms, 0318ms total)
T4170 000:683 JLINK_WriteReg(R15 (PC), 0x200000F4)  returns 0x00 (0000ms, 0318ms total)
T4170 000:683 JLINK_WriteReg(XPSR, 0x01000000)  returns 0x00 (0000ms, 0318ms total)
T4170 000:683 JLINK_WriteReg(MSP, 0x20001000)  returns 0x00 (0000ms, 0318ms total)
T4170 000:683 JLINK_WriteReg(PSP, 0x20001000)  returns 0x00 (0000ms, 0318ms total)
T4170 000:683 JLINK_WriteReg(CFBP, 0x00000000)  returns 0x00 (0000ms, 0318ms total)
T4170 000:683 JLINK_SetBPEx(Addr = 0x20000000, Type = 0xFFFFFFF2)  returns 0x00000008 (0001ms, 0319ms total)
T4170 000:684 JLINK_Go() -- CPU_ReadMem(4 bytes @ 0xE0001000) (0002ms, 0321ms total)
T4170 000:686 JLINK_IsHalted()  returns FALSE (0000ms, 0321ms total)
T4170 000:692 JLINK_IsHalted()  returns FALSE (0000ms, 0321ms total)
T4170 000:699 JLINK_IsHalted()  returns FALSE (0000ms, 0321ms total)
T4170 000:703 JLINK_IsHalted()  returns FALSE (0000ms, 0321ms total)
T4170 000:705 JLINK_IsHalted()  returns FALSE (0000ms, 0321ms total)
T4170 000:707 JLINK_IsHalted()  returns FALSE (0000ms, 0321ms total)
T4170 000:708 JLINK_IsHalted()  returns FALSE (0000ms, 0321ms total)
T4170 000:710 JLINK_IsHalted()  returns FALSE (0000ms, 0321ms total)
T4170 000:712 JLINK_IsHalted()  returns FALSE (0000ms, 0321ms total)
T4170 000:714 JLINK_IsHalted()  returns FALSE (0000ms, 0321ms total)
T4170 000:716 JLINK_IsHalted()  returns FALSE (0000ms, 0321ms total)
T4170 000:718 JLINK_IsHalted() -- CPU_ReadMem(2 bytes @ 0x20000000)  returns TRUE (0003ms, 0324ms total)
T4170 000:721 JLINK_ReadReg(R15 (PC))  returns 0x20000000 (0000ms, 0321ms total)
T4170 000:721 JLINK_ClrBPEx(BPHandle = 0x00000008)  returns 0x00 (0000ms, 0321ms total)
T4170 000:721 JLINK_ReadReg(R0)  returns 0x00000000 (0000ms, 0321ms total)
T4170 000:722 JLINK_WriteMem(0x20000164, 0x0400 Bytes, ...) - Data: 40 78 F8 B1 28 46 01 F0 1D FF 42 49 48 60 08 46 ... -- CPU_WriteMem(1024 bytes @ 0x20000164)  returns 0x400 (0005ms, 0326ms total)
T4170 000:727 JLINK_WriteReg(R0, 0x08001000)  returns 0x00 (0000ms, 0326ms total)
T4170 000:727 JLINK_WriteReg(R1, 0x00000400)  returns 0x00 (0000ms, 0326ms total)
T4170 000:727 JLINK_WriteReg(R2, 0x20000164)  returns 0x00 (0000ms, 0326ms total)
T4170 000:727 JLINK_WriteReg(R3, 0x00000000)  returns 0x00 (0000ms, 0326ms total)
T4170 000:727 JLINK_WriteReg(R4, 0x00000000)  returns 0x00 (0000ms, 0326ms total)
T4170 000:727 JLINK_WriteReg(R5, 0x00000000)  returns 0x00 (0000ms, 0326ms total)
T4170 000:727 JLINK_WriteReg(R6, 0x00000000)  returns 0x00 (0000ms, 0326ms total)
T4170 000:727 JLINK_WriteReg(R7, 0x00000000)  returns 0x00 (0000ms, 0326ms total)
T4170 000:727 JLINK_WriteReg(R8, 0x00000000)  returns 0x00 (0000ms, 0326ms total)
T4170 000:728 JLINK_WriteReg(R9, 0x20000160)  returns 0x00 (0000ms, 0327ms total)
T4170 000:728 JLINK_WriteReg(R10, 0x00000000)  returns 0x00 (0000ms, 0327ms total)
T4170 000:728 JLINK_WriteReg(R11, 0x00000000)  returns 0x00 (0000ms, 0327ms total)
T4170 000:728 JLINK_WriteReg(R12, 0x00000000)  returns 0x00 (0000ms, 0327ms total)
T4170 000:728 JLINK_WriteReg(R13 (SP), 0x20001000)  returns 0x00 (0000ms, 0327ms total)
T4170 000:728 JLINK_WriteReg(R14, 0x20000001)  returns 0x00 (0000ms, 0327ms total)
T4170 000:728 JLINK_WriteReg(R15 (PC), 0x200000F4)  returns 0x00 (0000ms, 0327ms total)
T4170 000:728 JLINK_WriteReg(XPSR, 0x01000000)  returns 0x00 (0000ms, 0327ms total)
T4170 000:728 JLINK_WriteReg(MSP, 0x20001000)  returns 0x00 (0000ms, 0327ms total)
T4170 000:728 JLINK_WriteReg(PSP, 0x20001000)  returns 0x00 (0000ms, 0327ms total)
T4170 000:728 JLINK_WriteReg(CFBP, 0x00000000)  returns 0x00 (0000ms, 0327ms total)
T4170 000:728 JLINK_SetBPEx(Addr = 0x20000000, Type = 0xFFFFFFF2)  returns 0x00000009 (0000ms, 0327ms total)
T4170 000:728 JLINK_Go() -- CPU_ReadMem(4 bytes @ 0xE0001000) (0002ms, 0329ms total)
T4170 000:730 JLINK_IsHalted()  returns FALSE (0001ms, 0330ms total)
T4170 000:733 JLINK_IsHalted()  returns FALSE (0000ms, 0329ms total)
T4170 000:735 JLINK_IsHalted()  returns FALSE (0000ms, 0329ms total)
T4170 000:737 JLINK_IsHalted()  returns FALSE (0000ms, 0329ms total)
T4170 000:739 JLINK_IsHalted()  returns FALSE (0000ms, 0329ms total)
T4170 000:741 JLINK_IsHalted()  returns FALSE (0000ms, 0329ms total)
T4170 000:743 JLINK_IsHalted()  returns FALSE (0000ms, 0329ms total)
T4170 000:745 JLINK_IsHalted()  returns FALSE (0000ms, 0329ms total)
T4170 000:747 JLINK_IsHalted()  returns FALSE (0000ms, 0329ms total)
T4170 000:749 JLINK_IsHalted()  returns FALSE (0000ms, 0329ms total)
T4170 000:751 JLINK_IsHalted()  returns FALSE (0000ms, 0329ms total)
T4170 000:753 JLINK_IsHalted()  returns FALSE (0000ms, 0329ms total)
T4170 000:755 JLINK_IsHalted()  returns FALSE (0000ms, 0329ms total)
T4170 000:757 JLINK_IsHalted()  returns FALSE (0000ms, 0329ms total)
T4170 000:759 JLINK_IsHalted()  returns FALSE (0000ms, 0329ms total)
T4170 000:761 JLINK_IsHalted()  returns FALSE (0000ms, 0329ms total)
T4170 000:763 JLINK_IsHalted() -- CPU_ReadMem(2 bytes @ 0x20000000)  returns TRUE (0002ms, 0331ms total)
T4170 000:765 JLINK_ReadReg(R15 (PC))  returns 0x20000000 (0000ms, 0329ms total)
T4170 000:765 JLINK_ClrBPEx(BPHandle = 0x00000009)  returns 0x00 (0000ms, 0329ms total)
T4170 000:765 JLINK_ReadReg(R0)  returns 0x00000000 (0000ms, 0329ms total)
T4170 000:766 JLINK_WriteMem(0x20000164, 0x0400 Bytes, ...) - Data: 20 C6 00 1F 04 28 FB D2 31 46 02 E0 01 F8 01 4B ... -- CPU_WriteMem(1024 bytes @ 0x20000164)  returns 0x400 (0004ms, 0333ms total)
T4170 000:770 JLINK_WriteReg(R0, 0x08001400)  returns 0x00 (0000ms, 0333ms total)
T4170 000:770 JLINK_WriteReg(R1, 0x00000400)  returns 0x00 (0000ms, 0333ms total)
T4170 000:770 JLINK_WriteReg(R2, 0x20000164)  returns 0x00 (0000ms, 0333ms total)
T4170 000:770 JLINK_WriteReg(R3, 0x00000000)  returns 0x00 (0000ms, 0333ms total)
T4170 000:770 JLINK_WriteReg(R4, 0x00000000)  returns 0x00 (0000ms, 0333ms total)
T4170 000:770 JLINK_WriteReg(R5, 0x00000000)  returns 0x00 (0000ms, 0333ms total)
T4170 000:770 JLINK_WriteReg(R6, 0x00000000)  returns 0x00 (0000ms, 0333ms total)
T4170 000:770 JLINK_WriteReg(R7, 0x00000000)  returns 0x00 (0001ms, 0334ms total)
T4170 000:771 JLINK_WriteReg(R8, 0x00000000)  returns 0x00 (0000ms, 0334ms total)
T4170 000:771 JLINK_WriteReg(R9, 0x20000160)  returns 0x00 (0000ms, 0334ms total)
T4170 000:771 JLINK_WriteReg(R10, 0x00000000)  returns 0x00 (0000ms, 0334ms total)
T4170 000:771 JLINK_WriteReg(R11, 0x00000000)  returns 0x00 (0000ms, 0334ms total)
T4170 000:771 JLINK_WriteReg(R12, 0x00000000)  returns 0x00 (0000ms, 0334ms total)
T4170 000:771 JLINK_WriteReg(R13 (SP), 0x20001000)  returns 0x00 (0000ms, 0334ms total)
T4170 000:771 JLINK_WriteReg(R14, 0x20000001)  returns 0x00 (0000ms, 0334ms total)
T4170 000:771 JLINK_WriteReg(R15 (PC), 0x200000F4)  returns 0x00 (0000ms, 0334ms total)
T4170 000:771 JLINK_WriteReg(XPSR, 0x01000000)  returns 0x00 (0000ms, 0334ms total)
T4170 000:771 JLINK_WriteReg(MSP, 0x20001000)  returns 0x00 (0000ms, 0334ms total)
T4170 000:771 JLINK_WriteReg(PSP, 0x20001000)  returns 0x00 (0000ms, 0334ms total)
T4170 000:771 JLINK_WriteReg(CFBP, 0x00000000)  returns 0x00 (0000ms, 0334ms total)
T4170 000:771 JLINK_SetBPEx(Addr = 0x20000000, Type = 0xFFFFFFF2)  returns 0x0000000A (0000ms, 0334ms total)
T4170 000:771 JLINK_Go() -- CPU_ReadMem(4 bytes @ 0xE0001000) (0002ms, 0336ms total)
T4170 000:773 JLINK_IsHalted()  returns FALSE (0000ms, 0336ms total)
T4170 000:775 JLINK_IsHalted()  returns FALSE (0000ms, 0336ms total)
T4170 000:777 JLINK_IsHalted()  returns FALSE (0000ms, 0336ms total)
T4170 000:779 JLINK_IsHalted()  returns FALSE (0000ms, 0336ms total)
T4170 000:781 JLINK_IsHalted()  returns FALSE (0000ms, 0336ms total)
T4170 000:783 JLINK_IsHalted()  returns FALSE (0000ms, 0336ms total)
T4170 000:785 JLINK_IsHalted()  returns FALSE (0000ms, 0336ms total)
T4170 000:794 JLINK_IsHalted()  returns FALSE (0000ms, 0336ms total)
T4170 000:796 JLINK_IsHalted()  returns FALSE (0000ms, 0336ms total)
T4170 000:798 JLINK_IsHalted()  returns FALSE (0000ms, 0336ms total)
T4170 000:800 JLINK_IsHalted()  returns FALSE (0000ms, 0336ms total)
T4170 000:810 JLINK_IsHalted() -- CPU_ReadMem(2 bytes @ 0x20000000)  returns TRUE (0002ms, 0338ms total)
T4170 000:812 JLINK_ReadReg(R15 (PC))  returns 0x20000000 (0001ms, 0337ms total)
T4170 000:813 JLINK_ClrBPEx(BPHandle = 0x0000000A)  returns 0x00 (0000ms, 0337ms total)
T4170 000:813 JLINK_ReadReg(R0)  returns 0x00000000 (0000ms, 0337ms total)
T4170 000:814 JLINK_WriteMem(0x20000164, 0x0400 Bytes, ...) - Data: 0B 49 08 60 00 BF 20 46 FE F7 B6 FC 00 BF 00 BF ... -- CPU_WriteMem(1024 bytes @ 0x20000164)  returns 0x400 (0004ms, 0341ms total)
T4170 000:818 JLINK_WriteReg(R0, 0x08001800)  returns 0x00 (0000ms, 0341ms total)
T4170 000:818 JLINK_WriteReg(R1, 0x00000400)  returns 0x00 (0000ms, 0341ms total)
T4170 000:818 JLINK_WriteReg(R2, 0x20000164)  returns 0x00 (0001ms, 0342ms total)
T4170 000:819 JLINK_WriteReg(R3, 0x00000000)  returns 0x00 (0000ms, 0342ms total)
T4170 000:819 JLINK_WriteReg(R4, 0x00000000)  returns 0x00 (0000ms, 0342ms total)
T4170 000:819 JLINK_WriteReg(R5, 0x00000000)  returns 0x00 (0000ms, 0342ms total)
T4170 000:819 JLINK_WriteReg(R6, 0x00000000)  returns 0x00 (0000ms, 0342ms total)
T4170 000:819 JLINK_WriteReg(R7, 0x00000000)  returns 0x00 (0000ms, 0342ms total)
T4170 000:819 JLINK_WriteReg(R8, 0x00000000)  returns 0x00 (0000ms, 0342ms total)
T4170 000:819 JLINK_WriteReg(R9, 0x20000160)  returns 0x00 (0000ms, 0342ms total)
T4170 000:819 JLINK_WriteReg(R10, 0x00000000)  returns 0x00 (0000ms, 0342ms total)
T4170 000:819 JLINK_WriteReg(R11, 0x00000000)  returns 0x00 (0000ms, 0342ms total)
T4170 000:819 JLINK_WriteReg(R12, 0x00000000)  returns 0x00 (0000ms, 0342ms total)
T4170 000:819 JLINK_WriteReg(R13 (SP), 0x20001000)  returns 0x00 (0000ms, 0342ms total)
T4170 000:819 JLINK_WriteReg(R14, 0x20000001)  returns 0x00 (0000ms, 0342ms total)
T4170 000:819 JLINK_WriteReg(R15 (PC), 0x200000F4)  returns 0x00 (0000ms, 0342ms total)
T4170 000:819 JLINK_WriteReg(XPSR, 0x01000000)  returns 0x00 (0000ms, 0342ms total)
T4170 000:820 JLINK_WriteReg(MSP, 0x20001000)  returns 0x00 (0000ms, 0342ms total)
T4170 000:820 JLINK_WriteReg(PSP, 0x20001000)  returns 0x00 (0000ms, 0342ms total)
T4170 000:820 JLINK_WriteReg(CFBP, 0x00000000)  returns 0x00 (0000ms, 0342ms total)
T4170 000:820 JLINK_SetBPEx(Addr = 0x20000000, Type = 0xFFFFFFF2)  returns 0x0000000B (0000ms, 0342ms total)
T4170 000:820 JLINK_Go() -- CPU_ReadMem(4 bytes @ 0xE0001000) (0002ms, 0344ms total)
T4170 000:822 JLINK_IsHalted()  returns FALSE (0000ms, 0344ms total)
T4170 000:824 JLINK_IsHalted()  returns FALSE (0000ms, 0344ms total)
T4170 000:826 JLINK_IsHalted()  returns FALSE (0000ms, 0344ms total)
T4170 000:828 JLINK_IsHalted()  returns FALSE (0000ms, 0344ms total)
T4170 000:830 JLINK_IsHalted()  returns FALSE (0000ms, 0344ms total)
T4170 000:832 JLINK_IsHalted()  returns FALSE (0000ms, 0344ms total)
T4170 000:834 JLINK_IsHalted()  returns FALSE (0001ms, 0345ms total)
T4170 000:837 JLINK_IsHalted()  returns FALSE (0000ms, 0344ms total)
T4170 000:839 JLINK_IsHalted()  returns FALSE (0000ms, 0344ms total)
T4170 000:841 JLINK_IsHalted()  returns FALSE (0000ms, 0344ms total)
T4170 000:843 JLINK_IsHalted()  returns FALSE (0000ms, 0344ms total)
T4170 000:845 JLINK_IsHalted()  returns FALSE (0000ms, 0344ms total)
T4170 000:847 JLINK_IsHalted()  returns FALSE (0000ms, 0344ms total)
T4170 000:849 JLINK_IsHalted()  returns FALSE (0000ms, 0344ms total)
T4170 000:851 JLINK_IsHalted()  returns FALSE (0000ms, 0344ms total)
T4170 000:853 JLINK_IsHalted() -- CPU_ReadMem(2 bytes @ 0x20000000)  returns TRUE (0002ms, 0346ms total)
T4170 000:855 JLINK_ReadReg(R15 (PC))  returns 0x20000000 (0000ms, 0344ms total)
T4170 000:855 JLINK_ClrBPEx(BPHandle = 0x0000000B)  returns 0x00 (0000ms, 0344ms total)
T4170 000:855 JLINK_ReadReg(R0)  returns 0x00000000 (0000ms, 0344ms total)
T4170 000:856 JLINK_WriteMem(0x20000164, 0x0400 Bytes, ...) - Data: 20 60 45 F6 C2 50 28 80 0D E0 46 F6 2E 60 28 80 ... -- CPU_WriteMem(1024 bytes @ 0x20000164)  returns 0x400 (0004ms, 0348ms total)
T4170 000:860 JLINK_WriteReg(R0, 0x08001C00)  returns 0x00 (0000ms, 0348ms total)
T4170 000:860 JLINK_WriteReg(R1, 0x00000400)  returns 0x00 (0000ms, 0348ms total)
T4170 000:860 JLINK_WriteReg(R2, 0x20000164)  returns 0x00 (0000ms, 0348ms total)
T4170 000:860 JLINK_WriteReg(R3, 0x00000000)  returns 0x00 (0000ms, 0348ms total)
T4170 000:860 JLINK_WriteReg(R4, 0x00000000)  returns 0x00 (0000ms, 0348ms total)
T4170 000:860 JLINK_WriteReg(R5, 0x00000000)  returns 0x00 (0000ms, 0348ms total)
T4170 000:860 JLINK_WriteReg(R6, 0x00000000)  returns 0x00 (0001ms, 0349ms total)
T4170 000:861 JLINK_WriteReg(R7, 0x00000000)  returns 0x00 (0000ms, 0349ms total)
T4170 000:861 JLINK_WriteReg(R8, 0x00000000)  returns 0x00 (0000ms, 0349ms total)
T4170 000:861 JLINK_WriteReg(R9, 0x20000160)  returns 0x00 (0000ms, 0349ms total)
T4170 000:861 JLINK_WriteReg(R10, 0x00000000)  returns 0x00 (0000ms, 0349ms total)
T4170 000:861 JLINK_WriteReg(R11, 0x00000000)  returns 0x00 (0000ms, 0349ms total)
T4170 000:861 JLINK_WriteReg(R12, 0x00000000)  returns 0x00 (0000ms, 0349ms total)
T4170 000:861 JLINK_WriteReg(R13 (SP), 0x20001000)  returns 0x00 (0000ms, 0349ms total)
T4170 000:861 JLINK_WriteReg(R14, 0x20000001)  returns 0x00 (0000ms, 0349ms total)
T4170 000:861 JLINK_WriteReg(R15 (PC), 0x200000F4)  returns 0x00 (0000ms, 0349ms total)
T4170 000:861 JLINK_WriteReg(XPSR, 0x01000000)  returns 0x00 (0000ms, 0349ms total)
T4170 000:861 JLINK_WriteReg(MSP, 0x20001000)  returns 0x00 (0000ms, 0349ms total)
T4170 000:861 JLINK_WriteReg(PSP, 0x20001000)  returns 0x00 (0000ms, 0349ms total)
T4170 000:861 JLINK_WriteReg(CFBP, 0x00000000)  returns 0x00 (0000ms, 0349ms total)
T4170 000:861 JLINK_SetBPEx(Addr = 0x20000000, Type = 0xFFFFFFF2)  returns 0x0000000C (0000ms, 0349ms total)
T4170 000:861 JLINK_Go() -- CPU_ReadMem(4 bytes @ 0xE0001000) (0002ms, 0351ms total)
T4170 000:863 JLINK_IsHalted()  returns FALSE (0000ms, 0351ms total)
T4170 000:865 JLINK_IsHalted()  returns FALSE (0000ms, 0351ms total)
T4170 000:867 JLINK_IsHalted()  returns FALSE (0000ms, 0351ms total)
T4170 000:869 JLINK_IsHalted()  returns FALSE (0000ms, 0351ms total)
T4170 000:871 JLINK_IsHalted()  returns FALSE (0000ms, 0351ms total)
T4170 000:873 JLINK_IsHalted()  returns FALSE (0000ms, 0351ms total)
T4170 000:875 JLINK_IsHalted()  returns FALSE (0000ms, 0351ms total)
T4170 000:877 JLINK_IsHalted()  returns FALSE (0000ms, 0351ms total)
T4170 000:887 JLINK_IsHalted()  returns FALSE (0000ms, 0351ms total)
T4170 000:889 JLINK_IsHalted()  returns FALSE (0000ms, 0351ms total)
T4170 000:891 JLINK_IsHalted()  returns FALSE (0000ms, 0351ms total)
T4170 000:893 JLINK_IsHalted()  returns FALSE (0000ms, 0351ms total)
T4170 000:895 JLINK_IsHalted() -- CPU_ReadMem(2 bytes @ 0x20000000)  returns TRUE (0003ms, 0354ms total)
T4170 000:898 JLINK_ReadReg(R15 (PC))  returns 0x20000000 (0000ms, 0351ms total)
T4170 000:898 JLINK_ClrBPEx(BPHandle = 0x0000000C)  returns 0x00 (0000ms, 0351ms total)
T4170 000:898 JLINK_ReadReg(R0)  returns 0x00000000 (0000ms, 0351ms total)
T4170 000:899 JLINK_WriteMem(0x20000164, 0x0400 Bytes, ...) - Data: F7 E7 B8 F1 00 0F 03 D1 47 F2 4F 10 28 80 F0 E7 ... -- CPU_WriteMem(1024 bytes @ 0x20000164)  returns 0x400 (0005ms, 0356ms total)
T4170 000:904 JLINK_WriteReg(R0, 0x08002000)  returns 0x00 (0000ms, 0356ms total)
T4170 000:904 JLINK_WriteReg(R1, 0x00000400)  returns 0x00 (0000ms, 0356ms total)
T4170 000:904 JLINK_WriteReg(R2, 0x20000164)  returns 0x00 (0000ms, 0356ms total)
T4170 000:904 JLINK_WriteReg(R3, 0x00000000)  returns 0x00 (0000ms, 0356ms total)
T4170 000:904 JLINK_WriteReg(R4, 0x00000000)  returns 0x00 (0000ms, 0356ms total)
T4170 000:904 JLINK_WriteReg(R5, 0x00000000)  returns 0x00 (0000ms, 0356ms total)
T4170 000:904 JLINK_WriteReg(R6, 0x00000000)  returns 0x00 (0000ms, 0356ms total)
T4170 000:904 JLINK_WriteReg(R7, 0x00000000)  returns 0x00 (0000ms, 0356ms total)
T4170 000:904 JLINK_WriteReg(R8, 0x00000000)  returns 0x00 (0000ms, 0356ms total)
T4170 000:904 JLINK_WriteReg(R9, 0x20000160)  returns 0x00 (0001ms, 0357ms total)
T4170 000:905 JLINK_WriteReg(R10, 0x00000000)  returns 0x00 (0000ms, 0357ms total)
T4170 000:905 JLINK_WriteReg(R11, 0x00000000)  returns 0x00 (0000ms, 0357ms total)
T4170 000:905 JLINK_WriteReg(R12, 0x00000000)  returns 0x00 (0000ms, 0357ms total)
T4170 000:905 JLINK_WriteReg(R13 (SP), 0x20001000)  returns 0x00 (0000ms, 0357ms total)
T4170 000:905 JLINK_WriteReg(R14, 0x20000001)  returns 0x00 (0000ms, 0357ms total)
T4170 000:905 JLINK_WriteReg(R15 (PC), 0x200000F4)  returns 0x00 (0000ms, 0357ms total)
T4170 000:905 JLINK_WriteReg(XPSR, 0x01000000)  returns 0x00 (0000ms, 0357ms total)
T4170 000:905 JLINK_WriteReg(MSP, 0x20001000)  returns 0x00 (0000ms, 0357ms total)
T4170 000:905 JLINK_WriteReg(PSP, 0x20001000)  returns 0x00 (0000ms, 0357ms total)
T4170 000:905 JLINK_WriteReg(CFBP, 0x00000000)  returns 0x00 (0000ms, 0357ms total)
T4170 000:905 JLINK_SetBPEx(Addr = 0x20000000, Type = 0xFFFFFFF2)  returns 0x0000000D (0000ms, 0357ms total)
T4170 000:905 JLINK_Go() -- CPU_ReadMem(4 bytes @ 0xE0001000) (0002ms, 0359ms total)
T4170 000:908 JLINK_IsHalted()  returns FALSE (0000ms, 0359ms total)
T4170 000:910 JLINK_IsHalted()  returns FALSE (0000ms, 0359ms total)
T4170 000:919 JLINK_IsHalted()  returns FALSE (0000ms, 0359ms total)
T4170 000:921 JLINK_IsHalted()  returns FALSE (0000ms, 0359ms total)
T4170 000:923 JLINK_IsHalted()  returns FALSE (0000ms, 0359ms total)
T4170 000:925 JLINK_IsHalted()  returns FALSE (0000ms, 0359ms total)
T4170 000:927 JLINK_IsHalted()  returns FALSE (0000ms, 0359ms total)
T4170 000:929 JLINK_IsHalted()  returns FALSE (0000ms, 0359ms total)
T4170 000:931 JLINK_IsHalted()  returns FALSE (0000ms, 0359ms total)
T4170 000:933 JLINK_IsHalted()  returns FALSE (0000ms, 0359ms total)
T4170 000:935 JLINK_IsHalted()  returns FALSE (0000ms, 0359ms total)
T4170 000:937 JLINK_IsHalted()  returns FALSE (0000ms, 0359ms total)
T4170 000:939 JLINK_IsHalted() -- CPU_ReadMem(2 bytes @ 0x20000000)  returns TRUE (0003ms, 0362ms total)
T4170 000:942 JLINK_ReadReg(R15 (PC))  returns 0x20000000 (0000ms, 0359ms total)
T4170 000:942 JLINK_ClrBPEx(BPHandle = 0x0000000D)  returns 0x00 (0000ms, 0359ms total)
T4170 000:942 JLINK_ReadReg(R0)  returns 0x00000000 (0000ms, 0359ms total)
T4170 000:944 JLINK_WriteMem(0x20000164, 0x0400 Bytes, ...) - Data: 02 F0 40 FB 1D 48 00 88 40 1E 1C 49 08 80 20 46 ... -- CPU_WriteMem(1024 bytes @ 0x20000164)  returns 0x400 (0004ms, 0363ms total)
T4170 000:948 JLINK_WriteReg(R0, 0x08002400)  returns 0x00 (0001ms, 0364ms total)
T4170 000:949 JLINK_WriteReg(R1, 0x00000400)  returns 0x00 (0000ms, 0364ms total)
T4170 000:949 JLINK_WriteReg(R2, 0x20000164)  returns 0x00 (0000ms, 0364ms total)
T4170 000:949 JLINK_WriteReg(R3, 0x00000000)  returns 0x00 (0000ms, 0364ms total)
T4170 000:949 JLINK_WriteReg(R4, 0x00000000)  returns 0x00 (0000ms, 0364ms total)
T4170 000:949 JLINK_WriteReg(R5, 0x00000000)  returns 0x00 (0000ms, 0364ms total)
T4170 000:949 JLINK_WriteReg(R6, 0x00000000)  returns 0x00 (0000ms, 0364ms total)
T4170 000:949 JLINK_WriteReg(R7, 0x00000000)  returns 0x00 (0000ms, 0364ms total)
T4170 000:949 JLINK_WriteReg(R8, 0x00000000)  returns 0x00 (0000ms, 0364ms total)
T4170 000:949 JLINK_WriteReg(R9, 0x20000160)  returns 0x00 (0000ms, 0364ms total)
T4170 000:949 JLINK_WriteReg(R10, 0x00000000)  returns 0x00 (0000ms, 0364ms total)
T4170 000:949 JLINK_WriteReg(R11, 0x00000000)  returns 0x00 (0000ms, 0364ms total)
T4170 000:949 JLINK_WriteReg(R12, 0x00000000)  returns 0x00 (0001ms, 0365ms total)
T4170 000:950 JLINK_WriteReg(R13 (SP), 0x20001000)  returns 0x00 (0000ms, 0365ms total)
T4170 000:950 JLINK_WriteReg(R14, 0x20000001)  returns 0x00 (0000ms, 0365ms total)
T4170 000:950 JLINK_WriteReg(R15 (PC), 0x200000F4)  returns 0x00 (0000ms, 0365ms total)
T4170 000:950 JLINK_WriteReg(XPSR, 0x01000000)  returns 0x00 (0000ms, 0365ms total)
T4170 000:950 JLINK_WriteReg(MSP, 0x20001000)  returns 0x00 (0000ms, 0365ms total)
T4170 000:950 JLINK_WriteReg(PSP, 0x20001000)  returns 0x00 (0000ms, 0365ms total)
T4170 000:950 JLINK_WriteReg(CFBP, 0x00000000)  returns 0x00 (0000ms, 0365ms total)
T4170 000:950 JLINK_SetBPEx(Addr = 0x20000000, Type = 0xFFFFFFF2)  returns 0x0000000E (0000ms, 0365ms total)
T4170 000:950 JLINK_Go() -- CPU_ReadMem(4 bytes @ 0xE0001000) (0002ms, 0367ms total)
T4170 000:952 JLINK_IsHalted()  returns FALSE (0001ms, 0368ms total)
T4170 001:141 JLINK_IsHalted() -- CPU_ReadMem(2 bytes @ 0x20000000)  returns TRUE (0002ms, 0369ms total)
